
T1EA4 000:337 SEGGER J-Link V4.98e Log File (0000ms, 0268ms total)
T1EA4 000:337 DLL Compiled: May  5 2015 11:00:52 (0000ms, 0268ms total)
T1EA4 000:337 Logging started @ 2018-08-13 16:44 (0000ms, 0268ms total)
T1EA4 000:337 JLINK_SetWarnOutHandler(...) (0000ms, 0268ms total)
T1EA4 000:337 JLINK_OpenEx(...)
Firmware: J-Link ARM-OB STM32 compiled Aug 22 2012 19:52:04
Hardware: V7.00
S/N: 20090928
Feature(s): RDI,FlashDL,FlashBP,JFlash,GDBFull  returns O.K. (0261ms, 0529ms total)
T1EA4 000:598 JLINK_SetErrorOutHandler(...) (0000ms, 0529ms total)
T1EA4 000:598 JLINK_ExecCommand("ProjectFile = "E:\STM32\note\7TIMER\TIM6\USER\JLinkSettings.ini"", ...)Device "UNSPECIFIED" selected.  returns 0x00 (0001ms, 0530ms total)
T1EA4 000:599 JLINK_ExecCommand("Device = STM32F407ZETx", ...)Device "UNSPECIFIED" selected.  returns 0x00 (0001ms, 0531ms total)
T1EA4 000:600 JLINK_ExecCommand("DisableConnectionTimeout", ...)  returns 0x01 (0000ms, 0531ms total)
T1EA4 000:600 JLINK_GetHardwareVersion()  returns 0x11170 (0000ms, 0531ms total)
T1EA4 000:600 JLINK_GetDLLVersion()  returns 49805 (0000ms, 0531ms total)
T1EA4 000:600 JLINK_GetFirmwareString(...) (0000ms, 0531ms total)
T1EA4 000:600 JLINK_GetDLLVersion()  returns 49805 (0000ms, 0531ms total)
T1EA4 000:600 JLINK_GetCompileDateTime() (0001ms, 0532ms total)
T1EA4 000:601 JLINK_GetFirmwareString(...) (0000ms, 0532ms total)
T1EA4 000:601 JLINK_GetHardwareVersion()  returns 0x11170 (0000ms, 0532ms total)
T1EA4 000:604 JLINK_TIF_Select(JLINKARM_TIF_SWD)  returns 0x00 (0001ms, 0533ms total)
T1EA4 000:605 JLINK_SetSpeed(5000) (0000ms, 0533ms total)
T1EA4 000:605 JLINK_GetId() >0x108 TIF>Found SWD-DP with ID 0x2BA01477 >0x0D TIF> >0x21 TIF> >0x0D TIF> >0x28 TIF> >0x0D TIF> >0x28 TIF> >0x0D TIF> >0x21 TIF> >0x0D TIF> >0x28 TIF> >0x0D TIF> >0x21 TIF> >0x0D TIF> >0x21 TIF> >0x0D TIF> >0x21 TIF> >0x0D TIF> >0x21 TIF> >0x0D TIF> >0x28 TIF> >0x0D TIF> >0x28 TIF> >0x0D TIF> >0x21 TIF> >0x0D TIF> >0x28 TIF> >0x0D TIF> >0x28 TIF> >0x0D TIF> >0x28 TIF> >0x0D TIF> >0x21 TIF> >0x0D TIF> >0x21 TIF> >0x0D TIF> >0x28 TIF> >0x0D TIF> >0x21 TIF> >0x0D TIF>
 >0x21 TIF>Found Cortex-M4 r0p1, Little endian. -- CPU_WriteMem(4 bytes @ 0xE0002000) -- CPU_ReadMem(4 bytes @ 0xE000EDF0) -- CPU_ReadMem(4 bytes @ 0xE0002000)FPUnit: 6 code (BP) slots and 2 literal slots -- CPU_ReadMem(4 bytes @ 0xE000EDFC) -- CPU_ReadMem(4 bytes @ 0xE0001000) -- CPU_WriteMem(4 bytes @ 0xE0001000) -- CPU_ReadMem(4 bytes @ 0xE000ED88) -- CPU_WriteMem(4 bytes @ 0xE000ED88) -- CPU_ReadMem(4 bytes @ 0xE000ED88) -- CPU_WriteMem(4 bytes @ 0xE000ED88)CoreSight components:ROMTbl 0 @ E00FF000
 -- CPU_ReadMem(16 bytes @ 0xE00FF000) -- CPU_ReadMem(16 bytes @ 0xE000EFF0) -- CPU_ReadMem(16 bytes @ 0xE000EFE0)ROMTbl 0 [0]: FFF0F000, CID: B105E00D, PID: 000BB00C SCS -- CPU_ReadMem(16 bytes @ 0xE0001FF0) -- CPU_ReadMem(16 bytes @ 0xE0001FE0)ROMTbl 0 [1]: FFF02000, CID: B105E00D, PID: 003BB002 DWT -- CPU_ReadMem(16 bytes @ 0xE0002FF0) -- CPU_ReadMem(16 bytes @ 0xE0002FE0)ROMTbl 0 [2]: FFF03000, CID: B105E00D, PID: 002BB003 FPB -- CPU_ReadMem(16 bytes @ 0xE0000FF0)
 -- CPU_ReadMem(16 bytes @ 0xE0000FE0)ROMTbl 0 [3]: FFF01000, CID: B105E00D, PID: 003BB001 ITM -- CPU_ReadMem(16 bytes @ 0xE00FF010) -- CPU_ReadMem(16 bytes @ 0xE0040FF0) -- CPU_ReadMem(16 bytes @ 0xE0040FE0)ROMTbl 0 [4]: FFF41000, CID: B105900D, PID: 000BB9A1 TPIU -- CPU_ReadMem(16 bytes @ 0xE0041FF0) -- CPU_ReadMem(16 bytes @ 0xE0041FE0)ROMTbl 0 [5]: FFF42000, CID: B105900D, PID: 000BB925 ETM >0x0D TIF> >0x21 TIF>  returns 0x2BA01477 (0044ms, 0577ms total)
T1EA4 000:649 JLINK_GetDLLVersion()  returns 49805 (0000ms, 0577ms total)
T1EA4 000:649 JLINK_CORE_GetFound()  returns 0xE0000FF (0000ms, 0577ms total)
T1EA4 000:649 JLINK_GetDebugInfo(0x100) -- Value=0xE00FF003  returns 0x00 (0000ms, 0577ms total)
T1EA4 000:649 JLINK_ReadMem (0xE00FF000, 0x0020 Bytes, ...) -- CPU is running -- CPU_ReadMem(32 bytes @ 0xE00FF000) - Data: 03 F0 F0 FF 03 20 F0 FF 03 30 F0 FF 03 10 F0 FF ...  returns 0x00 (0001ms, 0578ms total)
T1EA4 000:650 JLINK_ReadMem (0xE000EFF0, 0x0010 Bytes, ...) -- CPU is running -- CPU_ReadMem(16 bytes @ 0xE000EFF0) - Data: 0D 00 00 00 E0 00 00 00 05 00 00 00 B1 00 00 00  returns 0x00 (0001ms, 0579ms total)
T1EA4 000:651 JLINK_ReadMem (0xE000EFD0, 0x0020 Bytes, ...) -- CPU is running -- CPU_ReadMem(32 bytes @ 0xE000EFD0) - Data: 04 00 00 00 00 00 00 00 00 00 00 00 00 00 00 00 ...  returns 0x00 (0001ms, 0580ms total)
T1EA4 000:652 JLINK_ReadMem (0xE0001FF0, 0x0010 Bytes, ...) -- CPU is running -- CPU_ReadMem(16 bytes @ 0xE0001FF0) - Data: 0D 00 00 00 E0 00 00 00 05 00 00 00 B1 00 00 00  returns 0x00 (0001ms, 0581ms total)
T1EA4 000:653 JLINK_ReadMem (0xE0001FD0, 0x0020 Bytes, ...) -- CPU is running -- CPU_ReadMem(32 bytes @ 0xE0001FD0) - Data: 04 00 00 00 00 00 00 00 00 00 00 00 00 00 00 00 ...  returns 0x00 (0001ms, 0582ms total)
T1EA4 000:654 JLINK_ReadMem (0xE0002FF0, 0x0010 Bytes, ...) -- CPU is running -- CPU_ReadMem(16 bytes @ 0xE0002FF0) - Data: 0D 00 00 00 E0 00 00 00 05 00 00 00 B1 00 00 00  returns 0x00 (0000ms, 0582ms total)
T1EA4 000:654 JLINK_ReadMem (0xE0002FD0, 0x0020 Bytes, ...) -- CPU is running -- CPU_ReadMem(32 bytes @ 0xE0002FD0) - Data: 04 00 00 00 00 00 00 00 00 00 00 00 00 00 00 00 ...  returns 0x00 (0001ms, 0583ms total)
T1EA4 000:655 JLINK_ReadMem (0xE0000FF0, 0x0010 Bytes, ...) -- CPU is running -- CPU_ReadMem(16 bytes @ 0xE0000FF0) - Data: 0D 00 00 00 E0 00 00 00 05 00 00 00 B1 00 00 00  returns 0x00 (0001ms, 0584ms total)
T1EA4 000:656 JLINK_ReadMem (0xE0000FD0, 0x0020 Bytes, ...) -- CPU is running -- CPU_ReadMem(32 bytes @ 0xE0000FD0) - Data: 04 00 00 00 00 00 00 00 00 00 00 00 00 00 00 00 ...  returns 0x00 (0001ms, 0585ms total)
T1EA4 000:657 JLINK_ReadMem (0xE0040FF0, 0x0010 Bytes, ...) -- CPU is running -- CPU_ReadMem(16 bytes @ 0xE0040FF0) - Data: 0D 00 00 00 90 00 00 00 05 00 00 00 B1 00 00 00  returns 0x00 (0001ms, 0586ms total)
T1EA4 000:658 JLINK_ReadMem (0xE0040FD0, 0x0020 Bytes, ...) -- CPU is running -- CPU_ReadMem(32 bytes @ 0xE0040FD0) - Data: 04 00 00 00 00 00 00 00 00 00 00 00 00 00 00 00 ...  returns 0x00 (0001ms, 0587ms total)
T1EA4 000:659 JLINK_ReadMem (0xE0041FF0, 0x0010 Bytes, ...) -- CPU is running -- CPU_ReadMem(16 bytes @ 0xE0041FF0) - Data: 0D 00 00 00 90 00 00 00 05 00 00 00 B1 00 00 00  returns 0x00 (0001ms, 0588ms total)
T1EA4 000:660 JLINK_ReadMem (0xE0041FD0, 0x0020 Bytes, ...) -- CPU is running -- CPU_ReadMem(32 bytes @ 0xE0041FD0) - Data: 04 00 00 00 00 00 00 00 00 00 00 00 00 00 00 00 ...  returns 0x00 (0001ms, 0589ms total)
T1EA4 000:661 JLINK_ReadMemU32(0xE000EF40, 0x0001 Items, ...) -- CPU is running -- CPU_ReadMem(4 bytes @ 0xE000EF40) - Data: 21 00 11 10  returns 0x01 (0000ms, 0589ms total)
T1EA4 000:661 JLINK_ReadMemU32(0xE000EF44, 0x0001 Items, ...) -- CPU is running -- CPU_ReadMem(4 bytes @ 0xE000EF44) - Data: 11 00 00 11  returns 0x01 (0001ms, 0590ms total)
T1EA4 000:662 JLINK_ReadMemU32(0xE000ED00, 0x0001 Items, ...) -- CPU is running -- CPU_ReadMem(4 bytes @ 0xE000ED00) - Data: 41 C2 0F 41  returns 0x01 (0001ms, 0591ms total)
T1EA4 000:663 JLINK_SetResetType(JLINKARM_RESET_TYPE_NORMAL)  returns JLINKARM_RESET_TYPE_NORMAL (0000ms, 0591ms total)
T1EA4 000:663 JLINK_Reset() -- CPU is running -- CPU_WriteMem(4 bytes @ 0xE000EDF0) -- CPU is running -- CPU_WriteMem(4 bytes @ 0xE000EDFC) >0x35 TIF> -- CPU is running -- CPU_WriteMem(4 bytes @ 0xE000ED0C) -- CPU is running -- CPU_ReadMem(4 bytes @ 0xE000EDF0) -- CPU is running -- CPU_ReadMem(4 bytes @ 0xE000EDF0) -- CPU is running -- CPU_WriteMem(4 bytes @ 0xE000EDF0) -- CPU is running -- CPU_WriteMem(4 bytes @ 0xE000EDFC) -- CPU is running -- CPU_ReadMem(4 bytes @ 0xE000EDF0)
 -- CPU_WriteMem(4 bytes @ 0xE0002000) -- CPU_ReadMem(4 bytes @ 0xE000EDFC) -- CPU_ReadMem(4 bytes @ 0xE0001000) (0018ms, 0609ms total)
T1EA4 000:681 JLINK_ReadReg(R15 (PC))  returns 0x0800019C (0000ms, 0609ms total)
T1EA4 000:681 JLINK_ReadReg(XPSR)  returns 0x01000000 (0001ms, 0610ms total)
T1EA4 000:682 JLINK_Halt()  returns 0x00 (0000ms, 0610ms total)
T1EA4 000:682 JLINK_IsHalted()  returns TRUE (0000ms, 0610ms total)
T1EA4 000:682 JLINK_ReadMemU32(0xE000EDF0, 0x0001 Items, ...) -- CPU_ReadMem(4 bytes @ 0xE000EDF0) - Data: 03 00 03 00  returns 0x01 (0000ms, 0610ms total)
T1EA4 000:682 JLINK_WriteU32(0xE000EDF0, 0xA05F0003) -- CPU_WriteMem(4 bytes @ 0xE000EDF0)  returns 0x00 (0001ms, 0611ms total)
T1EA4 000:683 JLINK_WriteU32(0xE000EDFC, 0x01000000) -- CPU_WriteMem(4 bytes @ 0xE000EDFC)  returns 0x00 (0001ms, 0612ms total)
T1EA4 000:684 JLINK_GetHWStatus(...)  returns 0x00 (0001ms, 0613ms total)
T1EA4 000:685 JLINK_GetNumBPUnits(Type = 0xFFFFFF00)  returns 0x06 (0000ms, 0613ms total)
T1EA4 000:685 JLINK_GetNumBPUnits(Type = 0xF0)  returns 0x2000 (0000ms, 0613ms total)
T1EA4 000:685 JLINK_GetNumWPUnits()  returns 0x04 (0000ms, 0613ms total)
T1EA4 000:685 JLINK_GetSpeed()  returns 0xFA0 (0000ms, 0613ms total)
T1EA4 000:686 JLINK_ReadMemU32(0xE000E004, 0x0001 Items, ...) -- CPU_ReadMem(4 bytes @ 0xE000E004) - Data: 02 00 00 00  returns 0x01 (0001ms, 0614ms total)
T1EA4 000:687 JLINK_ReadMemU32(0xE000E004, 0x0001 Items, ...) -- CPU_ReadMem(4 bytes @ 0xE000E004) - Data: 02 00 00 00  returns 0x01 (0001ms, 0615ms total)
T1EA4 000:688 JLINK_WriteMem(0xE0001000, 0x001C Bytes, ...) - Data: 01 00 00 00 00 00 00 00 00 00 00 00 00 00 00 00 ... -- CPU_WriteMem(28 bytes @ 0xE0001000)  returns 0x1C (0001ms, 0616ms total)
T1EA4 000:689 JLINK_ReadMem (0xE0001000, 0x001C Bytes, ...) -- CPU_ReadMem(28 bytes @ 0xE0001000) - Data: 01 00 00 40 00 00 00 00 00 00 00 00 00 00 00 00 ...  returns 0x00 (0001ms, 0617ms total)
T1EA4 000:690 JLINK_ReadReg(R15 (PC))  returns 0x0800019C (0000ms, 0617ms total)
T1EA4 000:690 JLINK_ReadReg(XPSR)  returns 0x01000000 (0000ms, 0617ms total)
T1EA4 000:761 JLINK_SetResetType(JLINKARM_RESET_TYPE_NORMAL)  returns JLINKARM_RESET_TYPE_NORMAL (0000ms, 0617ms total)
T1EA4 000:761 JLINK_Reset() -- CPU_WriteMem(4 bytes @ 0xE000EDF0) -- CPU_WriteMem(4 bytes @ 0xE000EDFC) >0x35 TIF> -- CPU_WriteMem(4 bytes @ 0xE000ED0C) -- CPU_ReadMem(4 bytes @ 0xE000EDF0) -- CPU_ReadMem(4 bytes @ 0xE000EDF0) -- CPU_WriteMem(4 bytes @ 0xE000EDF0) -- CPU_WriteMem(4 bytes @ 0xE000EDFC) -- CPU is running -- CPU_ReadMem(4 bytes @ 0xE000EDF0) -- CPU_WriteMem(4 bytes @ 0xE0002000) -- CPU_ReadMem(4 bytes @ 0xE000EDFC) -- CPU_ReadMem(4 bytes @ 0xE0001000) (0019ms, 0636ms total)
T1EA4 000:780 JLINK_ReadReg(R15 (PC))  returns 0x0800019C (0000ms, 0636ms total)
T1EA4 000:781 JLINK_ReadReg(XPSR)  returns 0x01000000 (0000ms, 0637ms total)
T1EA4 000:781 JLINK_ReadMem (0x0800019C, 0x003C Bytes, ...) -- CPU_ReadMem(60 bytes @ 0x0800019C) - Data: 06 48 80 47 06 48 00 47 FE E7 FE E7 FE E7 FE E7 ...  returns 0x00 (0001ms, 0638ms total)
T1EA4 002:027 JLINK_ReadMem (0x00000000, 0x0180 Bytes, ...) -- CPU_ReadMem(384 bytes @ 0x00000000) - Data: 28 04 00 20 9D 01 00 08 41 05 00 08 7F 04 00 08 ...  returns 0x00 (0005ms, 0643ms total)
T1EA4 002:387 JLINK_ReadMem (0x2000000C, 0x0004 Bytes, ...) -- CPU_ReadMem(4 bytes @ 0x2000000C) - Data: 00 00 00 00  returns 0x00 (0001ms, 0644ms total)
T1EA4 002:389 JLINK_ReadMem (0x20000000, 0x0005 Bytes, ...) -- CPU_ReadMem(5 bytes @ 0x20000000) - Data: AA 00 00 00 00  returns 0x00 (0001ms, 0645ms total)
T2264 002:452 JLINK_SetBPEx(Addr = 0x08000DA4, Type = 0xFFFFFFF2)  returns 0x00000001 (0000ms, 0645ms total)
T2264 002:452 JLINK_Go() -- CPU_WriteMem(4 bytes @ 0xE0002000) -- CPU_ReadMem(4 bytes @ 0xE0001000) -- CPU_WriteMem(4 bytes @ 0xE0002008) -- CPU_WriteMem(4 bytes @ 0xE000200C) -- CPU_WriteMem(4 bytes @ 0xE0002010) -- CPU_WriteMem(4 bytes @ 0xE0002014) -- CPU_WriteMem(4 bytes @ 0xE0002018) -- CPU_WriteMem(4 bytes @ 0xE000201C) -- CPU_WriteMem(4 bytes @ 0xE0001004) (0007ms, 0652ms total)
T2264 002:559 JLINK_IsHalted()  returns TRUE (0003ms, 0655ms total)
T2264 002:562 JLINK_Halt()  returns 0x00 (0000ms, 0652ms total)
T2264 002:562 JLINK_IsHalted()  returns TRUE (0001ms, 0653ms total)
T2264 002:563 JLINK_IsHalted()  returns TRUE (0000ms, 0652ms total)
T2264 002:563 JLINK_IsHalted()  returns TRUE (0000ms, 0652ms total)
T2264 002:563 JLINK_ReadReg(R15 (PC))  returns 0x08000DA4 (0000ms, 0652ms total)
T2264 002:563 JLINK_ReadReg(XPSR)  returns 0x61000000 (0000ms, 0652ms total)
T2264 002:563 JLINK_ClrBPEx(BPHandle = 0x00000001)  returns 0x00 (0000ms, 0652ms total)
T2264 002:563 JLINK_ReadMemU32(0xE000ED30, 0x0001 Items, ...) -- CPU_ReadMem(4 bytes @ 0xE000ED30) - Data: 03 00 00 00  returns 0x01 (0000ms, 0652ms total)
T2264 002:563 JLINK_ReadMemU32(0xE0001028, 0x0001 Items, ...) -- CPU_ReadMem(4 bytes @ 0xE0001028) - Data: 00 00 00 00  returns 0x01 (0001ms, 0653ms total)
T2264 002:564 JLINK_ReadMemU32(0xE0001038, 0x0001 Items, ...) -- CPU_ReadMem(4 bytes @ 0xE0001038) - Data: 00 02 00 00  returns 0x01 (0001ms, 0654ms total)
T2264 002:565 JLINK_ReadMemU32(0xE0001048, 0x0001 Items, ...) -- CPU_ReadMem(4 bytes @ 0xE0001048) - Data: 00 00 00 00  returns 0x01 (0000ms, 0654ms total)
T2264 002:565 JLINK_ReadMemU32(0xE0001058, 0x0001 Items, ...) -- CPU_ReadMem(4 bytes @ 0xE0001058) - Data: 00 00 00 00  returns 0x01 (0001ms, 0655ms total)
T2264 002:566 JLINK_ReadReg(R0)  returns 0x08000DA5 (0000ms, 0655ms total)
T2264 002:566 JLINK_ReadReg(R1)  returns 0x20000428 (0000ms, 0655ms total)
T2264 002:566 JLINK_ReadReg(R2)  returns 0x00000000 (0000ms, 0655ms total)
T2264 002:566 JLINK_ReadReg(R3)  returns 0x08000D51 (0000ms, 0655ms total)
T2264 002:566 JLINK_ReadReg(R4)  returns 0x08000E50 (0000ms, 0655ms total)
T2264 002:566 JLINK_ReadReg(R5)  returns 0x08000E50 (0000ms, 0655ms total)
T2264 002:566 JLINK_ReadReg(R6)  returns 0x00000000 (0001ms, 0656ms total)
T2264 002:567 JLINK_ReadReg(R7)  returns 0x00000000 (0000ms, 0656ms total)
T2264 002:567 JLINK_ReadReg(R8)  returns 0x00000000 (0000ms, 0656ms total)
T2264 002:567 JLINK_ReadReg(R9)  returns 0x00000000 (0000ms, 0656ms total)
T2264 002:567 JLINK_ReadReg(R10)  returns 0x00000000 (0000ms, 0656ms total)
T2264 002:567 JLINK_ReadReg(R11)  returns 0x00000000 (0000ms, 0656ms total)
T2264 002:567 JLINK_ReadReg(R12)  returns 0x00000000 (0000ms, 0656ms total)
T2264 002:567 JLINK_ReadReg(R13 (SP))  returns 0x20000428 (0000ms, 0656ms total)
T2264 002:567 JLINK_ReadReg(R14)  returns 0x080001DD (0000ms, 0656ms total)
T2264 002:567 JLINK_ReadReg(R15 (PC))  returns 0x08000DA4 (0000ms, 0656ms total)
T2264 002:567 JLINK_ReadReg(XPSR)  returns 0x61000000 (0000ms, 0656ms total)
T2264 002:567 JLINK_ReadReg(MSP)  returns 0x20000428 (0000ms, 0656ms total)
T2264 002:567 JLINK_ReadReg(PSP)  returns 0x00000000 (0000ms, 0656ms total)
T2264 002:567 JLINK_ReadReg(CFBP)  returns 0x00000000 (0000ms, 0656ms total)
T2264 002:567 JLINK_ReadReg(FPSCR)  returns 0x00000000 (0005ms, 0661ms total)
T2264 002:572 JLINK_ReadReg(FPS0)  returns 0x00000000 (0001ms, 0662ms total)
T2264 002:573 JLINK_ReadReg(FPS1)  returns 0x00000000 (0000ms, 0662ms total)
T2264 002:573 JLINK_ReadReg(FPS2)  returns 0x00000000 (0000ms, 0662ms total)
T2264 002:573 JLINK_ReadReg(FPS3)  returns 0x00000000 (0000ms, 0662ms total)
T2264 002:573 JLINK_ReadReg(FPS4)  returns 0x00000000 (0000ms, 0662ms total)
T2264 002:573 JLINK_ReadReg(FPS5)  returns 0x00000000 (0000ms, 0662ms total)
T2264 002:573 JLINK_ReadReg(FPS6)  returns 0x00000000 (0000ms, 0662ms total)
T2264 002:573 JLINK_ReadReg(FPS7)  returns 0x00000000 (0000ms, 0662ms total)
T2264 002:573 JLINK_ReadReg(FPS8)  returns 0x00000000 (0000ms, 0662ms total)
T2264 002:573 JLINK_ReadReg(FPS9)  returns 0x00000000 (0000ms, 0662ms total)
T2264 002:573 JLINK_ReadReg(FPS10)  returns 0x00000000 (0000ms, 0662ms total)
T2264 002:573 JLINK_ReadReg(FPS11)  returns 0x00000000 (0000ms, 0662ms total)
T2264 002:573 JLINK_ReadReg(FPS12)  returns 0x00000000 (0000ms, 0662ms total)
T2264 002:573 JLINK_ReadReg(FPS13)  returns 0x00000000 (0000ms, 0662ms total)
T2264 002:573 JLINK_ReadReg(FPS14)  returns 0x00000000 (0000ms, 0662ms total)
T2264 002:573 JLINK_ReadReg(FPS15)  returns 0x00000000 (0000ms, 0662ms total)
T2264 002:573 JLINK_ReadReg(FPS16)  returns 0x00000000 (0000ms, 0662ms total)
T2264 002:573 JLINK_ReadReg(FPS17)  returns 0x00000000 (0001ms, 0663ms total)
T2264 002:574 JLINK_ReadReg(FPS18)  returns 0x00000000 (0000ms, 0663ms total)
T2264 002:574 JLINK_ReadReg(FPS19)  returns 0x00000000 (0000ms, 0663ms total)
T2264 002:574 JLINK_ReadReg(FPS20)  returns 0x00000000 (0000ms, 0663ms total)
T2264 002:574 JLINK_ReadReg(FPS21)  returns 0x00000000 (0000ms, 0663ms total)
T2264 002:574 JLINK_ReadReg(FPS22)  returns 0x00000000 (0000ms, 0663ms total)
T2264 002:574 JLINK_ReadReg(FPS23)  returns 0x00000000 (0000ms, 0663ms total)
T2264 002:574 JLINK_ReadReg(FPS24)  returns 0x00000000 (0000ms, 0663ms total)
T2264 002:574 JLINK_ReadReg(FPS25)  returns 0x00000000 (0000ms, 0663ms total)
T2264 002:574 JLINK_ReadReg(FPS26)  returns 0x00000000 (0000ms, 0663ms total)
T2264 002:574 JLINK_ReadReg(FPS27)  returns 0x00000000 (0000ms, 0663ms total)
T2264 002:574 JLINK_ReadReg(FPS28)  returns 0x00000000 (0000ms, 0663ms total)
T2264 002:574 JLINK_ReadReg(FPS29)  returns 0x00000000 (0000ms, 0663ms total)
T2264 002:574 JLINK_ReadReg(FPS30)  returns 0x00000000 (0000ms, 0663ms total)
T2264 002:574 JLINK_ReadReg(FPS31)  returns 0x00000000 (0000ms, 0663ms total)
T1EA4 002:579 JLINK_ReadMem (0x00000000, 0x0002 Bytes, ...) -- CPU_ReadMem(2 bytes @ 0x00000000) - Data: 28 04  returns 0x00 (0001ms, 0664ms total)
T1EA4 002:581 JLINK_ReadMemU32(0xE0001004, 0x0001 Items, ...) -- CPU_ReadMem(4 bytes @ 0xE0001004) - Data: F0 2D 00 00  returns 0x01 (0001ms, 0665ms total)
T1EA4 002:582 JLINK_ReadMem (0x2000000C, 0x0004 Bytes, ...) -- CPU_ReadMem(4 bytes @ 0x2000000C) - Data: 00 00 00 00  returns 0x00 (0000ms, 0665ms total)
T1EA4 002:583 JLINK_ReadMem (0x20000000, 0x0005 Bytes, ...) -- CPU_ReadMem(5 bytes @ 0x20000000) - Data: AA 00 00 00 00  returns 0x00 (0001ms, 0666ms total)
T1EA4 002:589 JLINK_ReadMem (0x08000CA4, 0x003C Bytes, ...) -- CPU_ReadMem(128 bytes @ 0x08000C80) -- Updating DA cache (128 bytes @ 0x08000C80) -- Read from DA cache (60 bytes @ 0x08000CA4) - Data: 1F 48 FF F7 BF FB 4F F4 C0 60 06 90 02 20 8D F8 ...  returns 0x00 (0002ms, 0668ms total)
T1EA4 002:591 JLINK_ReadMem (0x08000CE0, 0x003C Bytes, ...) -- CPU_ReadMem(64 bytes @ 0x08000D00) -- Updating DA cache (64 bytes @ 0x08000D00) -- Read from DA cache (60 bytes @ 0x08000CE0) - Data: 14 00 0C 20 AD F8 12 00 02 A9 0F 48 FF F7 50 FF ...  returns 0x00 (0002ms, 0670ms total)
T1EA4 002:593 JLINK_ReadMem (0x08000D1C, 0x003C Bytes, ...) -- CPU_ReadMem(64 bytes @ 0x08000D40) -- Updating DA cache (64 bytes @ 0x08000D40) -- Read from DA cache (60 bytes @ 0x08000D1C) - Data: FF F7 D0 FE 08 B0 10 BD 00 00 02 40 00 10 01 40 ...  returns 0x00 (0002ms, 0672ms total)
T1EA4 002:595 JLINK_ReadMem (0x08000D58, 0x003C Bytes, ...) -- CPU_ReadMem(64 bytes @ 0x08000D80) -- Updating DA cache (64 bytes @ 0x08000D80) -- Read from DA cache (60 bytes @ 0x08000D58) - Data: 00 2A FB D1 70 47 2D E9 F0 41 16 46 0F 46 04 46 ...  returns 0x00 (0001ms, 0673ms total)
T1EA4 002:596 JLINK_ReadMem (0x08000D94, 0x003C Bytes, ...) -- CPU_ReadMem(64 bytes @ 0x08000DC0) -- Updating DA cache (64 bytes @ 0x08000DC0) -- Read from DA cache (60 bytes @ 0x08000D94) - Data: FF F7 A0 FE 00 28 F9 D0 20 46 70 BD 00 10 01 40 ...  returns 0x00 (0001ms, 0674ms total)
T1EA4 002:644 JLINK_ReadMem (0x08000DD2, 0x0002 Bytes, ...) -- Read from DA cache (2 bytes @ 0x08000DD2) - Data: 10 48  returns 0x00 (0001ms, 0675ms total)
T1EA4 002:645 JLINK_ReadMem (0x08000DD4, 0x003C Bytes, ...) -- CPU_ReadMem(64 bytes @ 0x08000E00) -- Updating DA cache (64 bytes @ 0x08000E00) -- Read from DA cache (60 bytes @ 0x08000DD4) - Data: 80 78 0F 49 C9 78 00 EB 01 20 84 B2 0C 48 40 78 ...  returns 0x00 (0001ms, 0676ms total)
T1EA4 025:512 JLINK_ReadMem (0x080008D0, 0x003C Bytes, ...) -- CPU_ReadMem(128 bytes @ 0x080008C0) -- Updating DA cache (128 bytes @ 0x080008C0) -- Read from DA cache (60 bytes @ 0x080008D0) - Data: 0C 48 00 68 40 1C 0B 49 08 60 08 46 00 68 B0 F5 ...  returns 0x00 (0002ms, 0678ms total)
T2264 028:192 JLINK_Step() -- Read from DA cache (2 bytes @ 0x08000DA4) -- Not simulated -- CPU_WriteMem(4 bytes @ 0xE0002008)  returns 0x00 (0008ms, 0686ms total)
T2264 028:200 JLINK_ReadReg(R15 (PC))  returns 0x08000DA8 (0000ms, 0686ms total)
T2264 028:200 JLINK_ReadReg(XPSR)  returns 0x61000000 (0000ms, 0686ms total)
T2264 028:200 JLINK_SetBPEx(Addr = 0x08000DAC, Type = 0xFFFFFFF2)  returns 0x00000002 (0000ms, 0686ms total)
T2264 028:200 JLINK_SetBPEx(Addr = 0x080008D0, Type = 0xFFFFFFF2)  returns 0x00000003 (0000ms, 0686ms total)
T2264 028:200 JLINK_Go() -- CPU_WriteMem(4 bytes @ 0xE0002000) -- CPU_WriteMem(4 bytes @ 0xE0002000) -- CPU_ReadMem(4 bytes @ 0xE0001000) -- CPU_WriteMem(4 bytes @ 0xE0002008) -- CPU_WriteMem(4 bytes @ 0xE000200C) (0003ms, 0689ms total)
T2264 028:303 JLINK_IsHalted()  returns TRUE (0003ms, 0692ms total)
T2264 028:306 JLINK_Halt()  returns 0x00 (0000ms, 0689ms total)
T2264 028:306 JLINK_IsHalted()  returns TRUE (0000ms, 0689ms total)
T2264 028:306 JLINK_IsHalted()  returns TRUE (0000ms, 0689ms total)
T2264 028:306 JLINK_IsHalted()  returns TRUE (0000ms, 0689ms total)
T2264 028:306 JLINK_ReadReg(R15 (PC))  returns 0x08000DAC (0000ms, 0689ms total)
T2264 028:306 JLINK_ReadReg(XPSR)  returns 0x21000000 (0000ms, 0689ms total)
T2264 028:306 JLINK_ClrBPEx(BPHandle = 0x00000002)  returns 0x00 (0000ms, 0689ms total)
T2264 028:306 JLINK_ClrBPEx(BPHandle = 0x00000003)  returns 0x00 (0000ms, 0689ms total)
T2264 028:306 JLINK_ReadMemU32(0xE000ED30, 0x0001 Items, ...) -- CPU_ReadMem(4 bytes @ 0xE000ED30) - Data: 03 00 00 00  returns 0x01 (0001ms, 0690ms total)
T2264 028:307 JLINK_ReadMemU32(0xE0001028, 0x0001 Items, ...) -- CPU_ReadMem(4 bytes @ 0xE0001028) - Data: 00 00 00 00  returns 0x01 (0001ms, 0691ms total)
T2264 028:308 JLINK_ReadMemU32(0xE0001038, 0x0001 Items, ...) -- CPU_ReadMem(4 bytes @ 0xE0001038) - Data: 00 02 00 00  returns 0x01 (0001ms, 0692ms total)
T2264 028:309 JLINK_ReadMemU32(0xE0001048, 0x0001 Items, ...) -- CPU_ReadMem(4 bytes @ 0xE0001048) - Data: 00 00 00 00  returns 0x01 (0001ms, 0693ms total)
T2264 028:310 JLINK_ReadMemU32(0xE0001058, 0x0001 Items, ...) -- CPU_ReadMem(4 bytes @ 0xE0001058) - Data: 00 00 00 00  returns 0x01 (0000ms, 0693ms total)
T2264 028:310 JLINK_ReadReg(R0)  returns 0x00000500 (0000ms, 0693ms total)
T2264 028:310 JLINK_ReadReg(R1)  returns 0x05FA0500 (0000ms, 0693ms total)
T2264 028:310 JLINK_ReadReg(R2)  returns 0xE000ED0C (0000ms, 0693ms total)
T2264 028:310 JLINK_ReadReg(R3)  returns 0x08000D51 (0001ms, 0694ms total)
T2264 028:311 JLINK_ReadReg(R4)  returns 0x08000E50 (0000ms, 0694ms total)
T2264 028:311 JLINK_ReadReg(R5)  returns 0x08000E50 (0000ms, 0694ms total)
T2264 028:311 JLINK_ReadReg(R6)  returns 0x00000000 (0000ms, 0694ms total)
T2264 028:311 JLINK_ReadReg(R7)  returns 0x00000000 (0000ms, 0694ms total)
T2264 028:311 JLINK_ReadReg(R8)  returns 0x00000000 (0000ms, 0694ms total)
T2264 028:311 JLINK_ReadReg(R9)  returns 0x00000000 (0000ms, 0694ms total)
T2264 028:311 JLINK_ReadReg(R10)  returns 0x00000000 (0000ms, 0694ms total)
T2264 028:311 JLINK_ReadReg(R11)  returns 0x00000000 (0000ms, 0694ms total)
T2264 028:311 JLINK_ReadReg(R12)  returns 0x00000000 (0000ms, 0694ms total)
T2264 028:311 JLINK_ReadReg(R13 (SP))  returns 0x20000428 (0000ms, 0694ms total)
T2264 028:311 JLINK_ReadReg(R14)  returns 0x08000DAD (0000ms, 0694ms total)
T2264 028:311 JLINK_ReadReg(R15 (PC))  returns 0x08000DAC (0000ms, 0694ms total)
T2264 028:311 JLINK_ReadReg(XPSR)  returns 0x21000000 (0000ms, 0694ms total)
T2264 028:311 JLINK_ReadReg(MSP)  returns 0x20000428 (0000ms, 0694ms total)
T2264 028:311 JLINK_ReadReg(PSP)  returns 0x00000000 (0000ms, 0694ms total)
T2264 028:311 JLINK_ReadReg(CFBP)  returns 0x00000000 (0000ms, 0694ms total)
T2264 028:311 JLINK_ReadReg(FPSCR)  returns 0x00000000 (0006ms, 0700ms total)
T2264 028:317 JLINK_ReadReg(FPS0)  returns 0x00000000 (0000ms, 0700ms total)
T2264 028:317 JLINK_ReadReg(FPS1)  returns 0x00000000 (0000ms, 0700ms total)
T2264 028:317 JLINK_ReadReg(FPS2)  returns 0x00000000 (0000ms, 0700ms total)
T2264 028:317 JLINK_ReadReg(FPS3)  returns 0x00000000 (0000ms, 0700ms total)
T2264 028:317 JLINK_ReadReg(FPS4)  returns 0x00000000 (0000ms, 0700ms total)
T2264 028:317 JLINK_ReadReg(FPS5)  returns 0x00000000 (0000ms, 0700ms total)
T2264 028:317 JLINK_ReadReg(FPS6)  returns 0x00000000 (0000ms, 0700ms total)
T2264 028:317 JLINK_ReadReg(FPS7)  returns 0x00000000 (0000ms, 0700ms total)
T2264 028:317 JLINK_ReadReg(FPS8)  returns 0x00000000 (0000ms, 0700ms total)
T2264 028:317 JLINK_ReadReg(FPS9)  returns 0x00000000 (0000ms, 0700ms total)
T2264 028:317 JLINK_ReadReg(FPS10)  returns 0x00000000 (0001ms, 0701ms total)
T2264 028:318 JLINK_ReadReg(FPS11)  returns 0x00000000 (0000ms, 0701ms total)
T2264 028:318 JLINK_ReadReg(FPS12)  returns 0x00000000 (0000ms, 0701ms total)
T2264 028:318 JLINK_ReadReg(FPS13)  returns 0x00000000 (0000ms, 0701ms total)
T2264 028:318 JLINK_ReadReg(FPS14)  returns 0x00000000 (0000ms, 0701ms total)
T2264 028:318 JLINK_ReadReg(FPS15)  returns 0x00000000 (0000ms, 0701ms total)
T2264 028:318 JLINK_ReadReg(FPS16)  returns 0x00000000 (0000ms, 0701ms total)
T2264 028:318 JLINK_ReadReg(FPS17)  returns 0x00000000 (0000ms, 0701ms total)
T2264 028:318 JLINK_ReadReg(FPS18)  returns 0x00000000 (0000ms, 0701ms total)
T2264 028:318 JLINK_ReadReg(FPS19)  returns 0x00000000 (0000ms, 0701ms total)
T2264 028:318 JLINK_ReadReg(FPS20)  returns 0x00000000 (0000ms, 0701ms total)
T2264 028:318 JLINK_ReadReg(FPS21)  returns 0x00000000 (0000ms, 0701ms total)
T2264 028:318 JLINK_ReadReg(FPS22)  returns 0x00000000 (0000ms, 0701ms total)
T2264 028:318 JLINK_ReadReg(FPS23)  returns 0x00000000 (0000ms, 0701ms total)
T2264 028:318 JLINK_ReadReg(FPS24)  returns 0x00000000 (0000ms, 0701ms total)
T2264 028:318 JLINK_ReadReg(FPS25)  returns 0x00000000 (0000ms, 0701ms total)
T2264 028:318 JLINK_ReadReg(FPS26)  returns 0x00000000 (0000ms, 0701ms total)
T2264 028:318 JLINK_ReadReg(FPS27)  returns 0x00000000 (0001ms, 0702ms total)
T2264 028:319 JLINK_ReadReg(FPS28)  returns 0x00000000 (0000ms, 0702ms total)
T2264 028:319 JLINK_ReadReg(FPS29)  returns 0x00000000 (0000ms, 0702ms total)
T2264 028:319 JLINK_ReadReg(FPS30)  returns 0x00000000 (0000ms, 0702ms total)
T2264 028:319 JLINK_ReadReg(FPS31)  returns 0x00000000 (0000ms, 0702ms total)
T1EA4 028:319 JLINK_ReadMem (0x00000000, 0x0002 Bytes, ...) -- CPU_ReadMem(2 bytes @ 0x00000000) - Data: 28 04  returns 0x00 (0000ms, 0702ms total)
T1EA4 028:320 JLINK_ReadMem (0x2000000C, 0x0004 Bytes, ...) -- CPU_ReadMem(4 bytes @ 0x2000000C) - Data: 00 00 00 00  returns 0x00 (0000ms, 0702ms total)
T1EA4 028:321 JLINK_ReadMem (0x20000000, 0x0005 Bytes, ...) -- CPU_ReadMem(5 bytes @ 0x20000000) - Data: AA 00 00 00 00  returns 0x00 (0001ms, 0703ms total)
T1EA4 028:325 JLINK_ReadMem (0x08000DA4, 0x003C Bytes, ...) -- CPU_ReadMem(128 bytes @ 0x08000D80) -- Updating DA cache (128 bytes @ 0x08000D80) -- Read from DA cache (60 bytes @ 0x08000DA4) - Data: 4F F4 A0 60 FF F7 08 FC FF F7 8C FB FF F7 68 FB ...  returns 0x00 (0003ms, 0706ms total)
T2264 029:857 JLINK_SetBPEx(Addr = 0x08000DB0, Type = 0xFFFFFFF2)  returns 0x00000004 (0001ms, 0707ms total)
T2264 029:858 JLINK_SetBPEx(Addr = 0x080008D0, Type = 0xFFFFFFF2)  returns 0x00000005 (0000ms, 0707ms total)
T2264 029:858 JLINK_Go() -- CPU_WriteMem(4 bytes @ 0xE0002000) -- CPU_WriteMem(4 bytes @ 0xE0002000) -- CPU_ReadMem(4 bytes @ 0xE0001000) -- CPU_WriteMem(4 bytes @ 0xE0002008) (0005ms, 0712ms total)
T2264 029:963 JLINK_IsHalted()  returns TRUE (0004ms, 0716ms total)
T2264 029:967 JLINK_Halt()  returns 0x00 (0000ms, 0712ms total)
T2264 029:967 JLINK_IsHalted()  returns TRUE (0000ms, 0712ms total)
T2264 029:967 JLINK_IsHalted()  returns TRUE (0000ms, 0712ms total)
T2264 029:967 JLINK_IsHalted()  returns TRUE (0000ms, 0712ms total)
T2264 029:967 JLINK_ReadReg(R15 (PC))  returns 0x08000DB0 (0000ms, 0712ms total)
T2264 029:967 JLINK_ReadReg(XPSR)  returns 0x61000000 (0000ms, 0712ms total)
T2264 029:967 JLINK_ClrBPEx(BPHandle = 0x00000004)  returns 0x00 (0000ms, 0712ms total)
T2264 029:967 JLINK_ClrBPEx(BPHandle = 0x00000005)  returns 0x00 (0000ms, 0712ms total)
T2264 029:967 JLINK_ReadMemU32(0xE000ED30, 0x0001 Items, ...) -- CPU_ReadMem(4 bytes @ 0xE000ED30) - Data: 03 00 00 00  returns 0x01 (0001ms, 0713ms total)
T2264 029:968 JLINK_ReadMemU32(0xE0001028, 0x0001 Items, ...) -- CPU_ReadMem(4 bytes @ 0xE0001028) - Data: 00 00 00 00  returns 0x01 (0000ms, 0713ms total)
T2264 029:968 JLINK_ReadMemU32(0xE0001038, 0x0001 Items, ...) -- CPU_ReadMem(4 bytes @ 0xE0001038) - Data: 00 02 00 00  returns 0x01 (0001ms, 0714ms total)
T2264 029:969 JLINK_ReadMemU32(0xE0001048, 0x0001 Items, ...) -- CPU_ReadMem(4 bytes @ 0xE0001048) - Data: 00 00 00 00  returns 0x01 (0001ms, 0715ms total)
T2264 029:970 JLINK_ReadMemU32(0xE0001058, 0x0001 Items, ...) -- CPU_ReadMem(4 bytes @ 0xE0001058) - Data: 00 00 00 00  returns 0x01 (0000ms, 0715ms total)
T2264 029:970 JLINK_ReadReg(R0)  returns 0x40021000 (0000ms, 0715ms total)
T2264 029:970 JLINK_ReadReg(R1)  returns 0x00006000 (0001ms, 0716ms total)
T2264 029:971 JLINK_ReadReg(R2)  returns 0x00006000 (0000ms, 0716ms total)
T2264 029:971 JLINK_ReadReg(R3)  returns 0x01000201 (0000ms, 0716ms total)
T2264 029:971 JLINK_ReadReg(R4)  returns 0x08000E50 (0000ms, 0716ms total)
T2264 029:971 JLINK_ReadReg(R5)  returns 0x08000E50 (0000ms, 0716ms total)
T2264 029:971 JLINK_ReadReg(R6)  returns 0x00000000 (0000ms, 0716ms total)
T2264 029:971 JLINK_ReadReg(R7)  returns 0x00000000 (0000ms, 0716ms total)
T2264 029:971 JLINK_ReadReg(R8)  returns 0x00000000 (0000ms, 0716ms total)
T2264 029:971 JLINK_ReadReg(R9)  returns 0x00000000 (0000ms, 0716ms total)
T2264 029:971 JLINK_ReadReg(R10)  returns 0x00000000 (0000ms, 0716ms total)
T2264 029:971 JLINK_ReadReg(R11)  returns 0x00000000 (0000ms, 0716ms total)
T2264 029:971 JLINK_ReadReg(R12)  returns 0x00000000 (0000ms, 0716ms total)
T2264 029:971 JLINK_ReadReg(R13 (SP))  returns 0x20000428 (0000ms, 0716ms total)
T2264 029:971 JLINK_ReadReg(R14)  returns 0x08000533 (0000ms, 0716ms total)
T2264 029:971 JLINK_ReadReg(R15 (PC))  returns 0x08000DB0 (0000ms, 0716ms total)
T2264 029:971 JLINK_ReadReg(XPSR)  returns 0x61000000 (0000ms, 0716ms total)
T2264 029:971 JLINK_ReadReg(MSP)  returns 0x20000428 (0000ms, 0716ms total)
T2264 029:971 JLINK_ReadReg(PSP)  returns 0x00000000 (0001ms, 0717ms total)
T2264 029:972 JLINK_ReadReg(CFBP)  returns 0x00000000 (0000ms, 0717ms total)
T2264 029:972 JLINK_ReadReg(FPSCR)  returns 0x00000000 (0005ms, 0722ms total)
T2264 029:977 JLINK_ReadReg(FPS0)  returns 0x00000000 (0000ms, 0722ms total)
T2264 029:977 JLINK_ReadReg(FPS1)  returns 0x00000000 (0000ms, 0722ms total)
T2264 029:977 JLINK_ReadReg(FPS2)  returns 0x00000000 (0000ms, 0722ms total)
T2264 029:977 JLINK_ReadReg(FPS3)  returns 0x00000000 (0000ms, 0722ms total)
T2264 029:977 JLINK_ReadReg(FPS4)  returns 0x00000000 (0000ms, 0722ms total)
T2264 029:977 JLINK_ReadReg(FPS5)  returns 0x00000000 (0000ms, 0722ms total)
T2264 029:977 JLINK_ReadReg(FPS6)  returns 0x00000000 (0000ms, 0722ms total)
T2264 029:977 JLINK_ReadReg(FPS7)  returns 0x00000000 (0000ms, 0722ms total)
T2264 029:977 JLINK_ReadReg(FPS8)  returns 0x00000000 (0000ms, 0722ms total)
T2264 029:977 JLINK_ReadReg(FPS9)  returns 0x00000000 (0000ms, 0722ms total)
T2264 029:977 JLINK_ReadReg(FPS10)  returns 0x00000000 (0000ms, 0722ms total)
T2264 029:977 JLINK_ReadReg(FPS11)  returns 0x00000000 (0000ms, 0722ms total)
T2264 029:977 JLINK_ReadReg(FPS12)  returns 0x00000000 (0000ms, 0722ms total)
T2264 029:977 JLINK_ReadReg(FPS13)  returns 0x00000000 (0000ms, 0722ms total)
T2264 029:978 JLINK_ReadReg(FPS14)  returns 0x00000000 (0000ms, 0723ms total)
T2264 029:978 JLINK_ReadReg(FPS15)  returns 0x00000000 (0000ms, 0723ms total)
T2264 029:978 JLINK_ReadReg(FPS16)  returns 0x00000000 (0000ms, 0723ms total)
T2264 029:978 JLINK_ReadReg(FPS17)  returns 0x00000000 (0000ms, 0723ms total)
T2264 029:978 JLINK_ReadReg(FPS18)  returns 0x00000000 (0000ms, 0723ms total)
T2264 029:978 JLINK_ReadReg(FPS19)  returns 0x00000000 (0000ms, 0723ms total)
T2264 029:978 JLINK_ReadReg(FPS20)  returns 0x00000000 (0000ms, 0723ms total)
T2264 029:978 JLINK_ReadReg(FPS21)  returns 0x00000000 (0000ms, 0723ms total)
T2264 029:978 JLINK_ReadReg(FPS22)  returns 0x00000000 (0000ms, 0723ms total)
T2264 029:978 JLINK_ReadReg(FPS23)  returns 0x00000000 (0000ms, 0723ms total)
T2264 029:978 JLINK_ReadReg(FPS24)  returns 0x00000000 (0000ms, 0723ms total)
T2264 029:978 JLINK_ReadReg(FPS25)  returns 0x00000000 (0000ms, 0723ms total)
T2264 029:978 JLINK_ReadReg(FPS26)  returns 0x00000000 (0000ms, 0723ms total)
T2264 029:978 JLINK_ReadReg(FPS27)  returns 0x00000000 (0000ms, 0723ms total)
T2264 029:978 JLINK_ReadReg(FPS28)  returns 0x00000000 (0001ms, 0724ms total)
T2264 029:979 JLINK_ReadReg(FPS29)  returns 0x00000000 (0000ms, 0724ms total)
T2264 029:979 JLINK_ReadReg(FPS30)  returns 0x00000000 (0000ms, 0724ms total)
T2264 029:979 JLINK_ReadReg(FPS31)  returns 0x00000000 (0000ms, 0724ms total)
T1EA4 029:979 JLINK_ReadMem (0x00000000, 0x0002 Bytes, ...) -- CPU_ReadMem(2 bytes @ 0x00000000) - Data: 28 04  returns 0x00 (0000ms, 0724ms total)
T1EA4 029:979 JLINK_ReadMem (0x2000000C, 0x0004 Bytes, ...) -- CPU_ReadMem(4 bytes @ 0x2000000C) - Data: 00 00 00 00  returns 0x00 (0001ms, 0725ms total)
T1EA4 029:980 JLINK_ReadMem (0x20000000, 0x0005 Bytes, ...) -- CPU_ReadMem(5 bytes @ 0x20000000) - Data: AA 00 00 00 00  returns 0x00 (0001ms, 0726ms total)
T1EA4 029:983 JLINK_ReadMem (0x08000DAC, 0x003C Bytes, ...) -- CPU_ReadMem(128 bytes @ 0x08000D80) -- Updating DA cache (128 bytes @ 0x08000D80) -- Read from DA cache (60 bytes @ 0x08000DAC) - Data: FF F7 8C FB FF F7 68 FB FF F7 16 FA FF F7 B0 FA ...  returns 0x00 (0002ms, 0728ms total)
T2264 030:375 JLINK_SetBPEx(Addr = 0x08000DB4, Type = 0xFFFFFFF2)  returns 0x00000006 (0001ms, 0729ms total)
T2264 030:376 JLINK_SetBPEx(Addr = 0x080008D0, Type = 0xFFFFFFF2)  returns 0x00000007 (0000ms, 0729ms total)
T2264 030:376 JLINK_Go() -- CPU_WriteMem(4 bytes @ 0xE0002000) -- CPU_WriteMem(4 bytes @ 0xE0002000) -- CPU_ReadMem(4 bytes @ 0xE0001000) -- CPU_WriteMem(4 bytes @ 0xE0002008) (0004ms, 0733ms total)
T2264 030:480 JLINK_IsHalted()  returns TRUE (0003ms, 0736ms total)
T2264 030:483 JLINK_Halt()  returns 0x00 (0000ms, 0733ms total)
T2264 030:483 JLINK_IsHalted()  returns TRUE (0000ms, 0733ms total)
T2264 030:483 JLINK_IsHalted()  returns TRUE (0000ms, 0733ms total)
T2264 030:483 JLINK_IsHalted()  returns TRUE (0000ms, 0733ms total)
T2264 030:483 JLINK_ReadReg(R15 (PC))  returns 0x08000DB4 (0000ms, 0733ms total)
T2264 030:483 JLINK_ReadReg(XPSR)  returns 0x61000000 (0000ms, 0733ms total)
T2264 030:483 JLINK_ClrBPEx(BPHandle = 0x00000006)  returns 0x00 (0000ms, 0733ms total)
T2264 030:483 JLINK_ClrBPEx(BPHandle = 0x00000007)  returns 0x00 (0000ms, 0733ms total)
T2264 030:483 JLINK_ReadMemU32(0xE000ED30, 0x0001 Items, ...) -- CPU_ReadMem(4 bytes @ 0xE000ED30) - Data: 03 00 00 00  returns 0x01 (0001ms, 0734ms total)
T2264 030:484 JLINK_ReadMemU32(0xE0001028, 0x0001 Items, ...) -- CPU_ReadMem(4 bytes @ 0xE0001028) - Data: 00 00 00 00  returns 0x01 (0001ms, 0735ms total)
T2264 030:485 JLINK_ReadMemU32(0xE0001038, 0x0001 Items, ...) -- CPU_ReadMem(4 bytes @ 0xE0001038) - Data: 00 02 00 00  returns 0x01 (0000ms, 0735ms total)
T2264 030:485 JLINK_ReadMemU32(0xE0001048, 0x0001 Items, ...) -- CPU_ReadMem(4 bytes @ 0xE0001048) - Data: 00 00 00 00  returns 0x01 (0001ms, 0736ms total)
T2264 030:486 JLINK_ReadMemU32(0xE0001058, 0x0001 Items, ...) -- CPU_ReadMem(4 bytes @ 0xE0001058) - Data: 00 00 00 00  returns 0x01 (0001ms, 0737ms total)
T2264 030:487 JLINK_ReadReg(R0)  returns 0x40020000 (0000ms, 0737ms total)
T2264 030:487 JLINK_ReadReg(R1)  returns 0x00000010 (0000ms, 0737ms total)
T2264 030:487 JLINK_ReadReg(R2)  returns 0x00000001 (0000ms, 0737ms total)
T2264 030:487 JLINK_ReadReg(R3)  returns 0x01000200 (0000ms, 0737ms total)
T2264 030:487 JLINK_ReadReg(R4)  returns 0x08000E50 (0000ms, 0737ms total)
T2264 030:487 JLINK_ReadReg(R5)  returns 0x08000E50 (0000ms, 0737ms total)
T2264 030:487 JLINK_ReadReg(R6)  returns 0x00000000 (0000ms, 0737ms total)
T2264 030:487 JLINK_ReadReg(R7)  returns 0x00000000 (0000ms, 0737ms total)
T2264 030:487 JLINK_ReadReg(R8)  returns 0x00000000 (0000ms, 0737ms total)
T2264 030:487 JLINK_ReadReg(R9)  returns 0x00000000 (0000ms, 0737ms total)
T2264 030:487 JLINK_ReadReg(R10)  returns 0x00000000 (0000ms, 0737ms total)
T2264 030:487 JLINK_ReadReg(R11)  returns 0x00000000 (0000ms, 0737ms total)
T2264 030:487 JLINK_ReadReg(R12)  returns 0x00000000 (0001ms, 0738ms total)
T2264 030:488 JLINK_ReadReg(R13 (SP))  returns 0x20000428 (0000ms, 0738ms total)
T2264 030:488 JLINK_ReadReg(R14)  returns 0x080004BF (0000ms, 0738ms total)
T2264 030:488 JLINK_ReadReg(R15 (PC))  returns 0x08000DB4 (0000ms, 0738ms total)
T2264 030:488 JLINK_ReadReg(XPSR)  returns 0x61000000 (0000ms, 0738ms total)
T2264 030:488 JLINK_ReadReg(MSP)  returns 0x20000428 (0000ms, 0738ms total)
T2264 030:488 JLINK_ReadReg(PSP)  returns 0x00000000 (0000ms, 0738ms total)
T2264 030:488 JLINK_ReadReg(CFBP)  returns 0x00000000 (0000ms, 0738ms total)
T2264 030:488 JLINK_ReadReg(FPSCR)  returns 0x00000000 (0005ms, 0743ms total)
T2264 030:493 JLINK_ReadReg(FPS0)  returns 0x00000000 (0000ms, 0743ms total)
T2264 030:493 JLINK_ReadReg(FPS1)  returns 0x00000000 (0000ms, 0743ms total)
T2264 030:493 JLINK_ReadReg(FPS2)  returns 0x00000000 (0000ms, 0743ms total)
T2264 030:493 JLINK_ReadReg(FPS3)  returns 0x00000000 (0000ms, 0743ms total)
T2264 030:493 JLINK_ReadReg(FPS4)  returns 0x00000000 (0000ms, 0743ms total)
T2264 030:493 JLINK_ReadReg(FPS5)  returns 0x00000000 (0000ms, 0743ms total)
T2264 030:493 JLINK_ReadReg(FPS6)  returns 0x00000000 (0000ms, 0743ms total)
T2264 030:493 JLINK_ReadReg(FPS7)  returns 0x00000000 (0000ms, 0743ms total)
T2264 030:493 JLINK_ReadReg(FPS8)  returns 0x00000000 (0000ms, 0743ms total)
T2264 030:494 JLINK_ReadReg(FPS9)  returns 0x00000000 (0000ms, 0744ms total)
T2264 030:494 JLINK_ReadReg(FPS10)  returns 0x00000000 (0000ms, 0744ms total)
T2264 030:494 JLINK_ReadReg(FPS11)  returns 0x00000000 (0000ms, 0744ms total)
T2264 030:494 JLINK_ReadReg(FPS12)  returns 0x00000000 (0000ms, 0744ms total)
T2264 030:494 JLINK_ReadReg(FPS13)  returns 0x00000000 (0000ms, 0744ms total)
T2264 030:494 JLINK_ReadReg(FPS14)  returns 0x00000000 (0000ms, 0744ms total)
T2264 030:494 JLINK_ReadReg(FPS15)  returns 0x00000000 (0000ms, 0744ms total)
T2264 030:494 JLINK_ReadReg(FPS16)  returns 0x00000000 (0000ms, 0744ms total)
T2264 030:494 JLINK_ReadReg(FPS17)  returns 0x00000000 (0000ms, 0744ms total)
T2264 030:494 JLINK_ReadReg(FPS18)  returns 0x00000000 (0000ms, 0744ms total)
T2264 030:494 JLINK_ReadReg(FPS19)  returns 0x00000000 (0000ms, 0744ms total)
T2264 030:494 JLINK_ReadReg(FPS20)  returns 0x00000000 (0000ms, 0744ms total)
T2264 030:494 JLINK_ReadReg(FPS21)  returns 0x00000000 (0000ms, 0744ms total)
T2264 030:494 JLINK_ReadReg(FPS22)  returns 0x00000000 (0000ms, 0744ms total)
T2264 030:494 JLINK_ReadReg(FPS23)  returns 0x00000000 (0000ms, 0744ms total)
T2264 030:494 JLINK_ReadReg(FPS24)  returns 0x00000000 (0000ms, 0744ms total)
T2264 030:494 JLINK_ReadReg(FPS25)  returns 0x00000000 (0000ms, 0744ms total)
T2264 030:494 JLINK_ReadReg(FPS26)  returns 0x00000000 (0001ms, 0745ms total)
T2264 030:495 JLINK_ReadReg(FPS27)  returns 0x00000000 (0000ms, 0745ms total)
T2264 030:495 JLINK_ReadReg(FPS28)  returns 0x00000000 (0000ms, 0745ms total)
T2264 030:495 JLINK_ReadReg(FPS29)  returns 0x00000000 (0000ms, 0745ms total)
T2264 030:495 JLINK_ReadReg(FPS30)  returns 0x00000000 (0000ms, 0745ms total)
T2264 030:495 JLINK_ReadReg(FPS31)  returns 0x00000000 (0000ms, 0745ms total)
T1EA4 030:495 JLINK_ReadMem (0x00000000, 0x0002 Bytes, ...) -- CPU_ReadMem(2 bytes @ 0x00000000) - Data: 28 04  returns 0x00 (0001ms, 0746ms total)
T1EA4 030:497 JLINK_ReadMem (0x2000000C, 0x0004 Bytes, ...) -- CPU_ReadMem(4 bytes @ 0x2000000C) - Data: 00 00 00 00  returns 0x00 (0001ms, 0748ms total)
T1EA4 030:498 JLINK_ReadMem (0x20000000, 0x0005 Bytes, ...) -- CPU_ReadMem(5 bytes @ 0x20000000) - Data: AA 00 00 00 00  returns 0x00 (0000ms, 0748ms total)
T1EA4 030:503 JLINK_ReadMem (0x08000DAC, 0x003C Bytes, ...) -- CPU_ReadMem(128 bytes @ 0x08000D80) -- Updating DA cache (128 bytes @ 0x08000D80) -- Read from DA cache (60 bytes @ 0x08000DAC) - Data: FF F7 8C FB FF F7 68 FB FF F7 16 FA FF F7 B0 FA ...  returns 0x00 (0002ms, 0751ms total)
T2264 030:840 JLINK_SetBPEx(Addr = 0x08000DB8, Type = 0xFFFFFFF2)  returns 0x00000008 (0001ms, 0752ms total)
T2264 030:841 JLINK_SetBPEx(Addr = 0x080008D0, Type = 0xFFFFFFF2)  returns 0x00000009 (0000ms, 0752ms total)
T2264 030:841 JLINK_Go() -- CPU_WriteMem(4 bytes @ 0xE0002000) -- CPU_WriteMem(4 bytes @ 0xE0002000) -- CPU_ReadMem(4 bytes @ 0xE0001000) -- CPU_WriteMem(4 bytes @ 0xE0002008) (0005ms, 0757ms total)
T2264 030:946 JLINK_IsHalted()  returns TRUE (0003ms, 0760ms total)
T2264 030:950 JLINK_Halt()  returns 0x00 (0000ms, 0757ms total)
T2264 030:950 JLINK_IsHalted()  returns TRUE (0000ms, 0757ms total)
T2264 030:950 JLINK_IsHalted()  returns TRUE (0000ms, 0757ms total)
T2264 030:950 JLINK_IsHalted()  returns TRUE (0000ms, 0757ms total)
T2264 030:950 JLINK_ReadReg(R15 (PC))  returns 0x08000DB8 (0000ms, 0757ms total)
T2264 030:950 JLINK_ReadReg(XPSR)  returns 0x61000000 (0000ms, 0757ms total)
T2264 030:950 JLINK_ClrBPEx(BPHandle = 0x00000008)  returns 0x00 (0000ms, 0757ms total)
T2264 030:950 JLINK_ClrBPEx(BPHandle = 0x00000009)  returns 0x00 (0000ms, 0757ms total)
T2264 030:950 JLINK_ReadMemU32(0xE000ED30, 0x0001 Items, ...) -- CPU_ReadMem(4 bytes @ 0xE000ED30) - Data: 03 00 00 00  returns 0x01 (0001ms, 0758ms total)
T2264 030:951 JLINK_ReadMemU32(0xE0001028, 0x0001 Items, ...) -- CPU_ReadMem(4 bytes @ 0xE0001028) - Data: 00 00 00 00  returns 0x01 (0000ms, 0758ms total)
T2264 030:951 JLINK_ReadMemU32(0xE0001038, 0x0001 Items, ...) -- CPU_ReadMem(4 bytes @ 0xE0001038) - Data: 00 02 00 00  returns 0x01 (0001ms, 0759ms total)
T2264 030:952 JLINK_ReadMemU32(0xE0001048, 0x0001 Items, ...) -- CPU_ReadMem(4 bytes @ 0xE0001048) - Data: 00 00 00 00  returns 0x01 (0001ms, 0760ms total)
T2264 030:953 JLINK_ReadMemU32(0xE0001058, 0x0001 Items, ...) -- CPU_ReadMem(4 bytes @ 0xE0001058) - Data: 00 00 00 00  returns 0x01 (0000ms, 0760ms total)
T2264 030:953 JLINK_ReadReg(R0)  returns 0x40021400 (0000ms, 0760ms total)
T2264 030:953 JLINK_ReadReg(R1)  returns 0x00000100 (0000ms, 0760ms total)
T2264 030:953 JLINK_ReadReg(R2)  returns 0x00000100 (0001ms, 0761ms total)
T2264 030:954 JLINK_ReadReg(R3)  returns 0x01000201 (0000ms, 0761ms total)
T2264 030:954 JLINK_ReadReg(R4)  returns 0x08000E50 (0000ms, 0761ms total)
T2264 030:954 JLINK_ReadReg(R5)  returns 0x08000E50 (0000ms, 0761ms total)
T2264 030:954 JLINK_ReadReg(R6)  returns 0x00000000 (0000ms, 0761ms total)
T2264 030:954 JLINK_ReadReg(R7)  returns 0x00000000 (0000ms, 0761ms total)
T2264 030:954 JLINK_ReadReg(R8)  returns 0x00000000 (0000ms, 0761ms total)
T2264 030:954 JLINK_ReadReg(R9)  returns 0x00000000 (0000ms, 0761ms total)
T2264 030:954 JLINK_ReadReg(R10)  returns 0x00000000 (0000ms, 0761ms total)
T2264 030:954 JLINK_ReadReg(R11)  returns 0x00000000 (0000ms, 0761ms total)
T2264 030:954 JLINK_ReadReg(R12)  returns 0x00000000 (0000ms, 0761ms total)
T2264 030:954 JLINK_ReadReg(R13 (SP))  returns 0x20000428 (0000ms, 0761ms total)
T2264 030:954 JLINK_ReadReg(R14)  returns 0x0800021F (0000ms, 0761ms total)
T2264 030:954 JLINK_ReadReg(R15 (PC))  returns 0x08000DB8 (0000ms, 0761ms total)
T2264 030:954 JLINK_ReadReg(XPSR)  returns 0x61000000 (0000ms, 0761ms total)
T2264 030:954 JLINK_ReadReg(MSP)  returns 0x20000428 (0000ms, 0761ms total)
T2264 030:954 JLINK_ReadReg(PSP)  returns 0x00000000 (0000ms, 0761ms total)
T2264 030:954 JLINK_ReadReg(CFBP)  returns 0x00000000 (0000ms, 0761ms total)
T2264 030:955 JLINK_ReadReg(FPSCR)  returns 0x00000000 (0005ms, 0767ms total)
T2264 030:960 JLINK_ReadReg(FPS0)  returns 0x00000000 (0000ms, 0767ms total)
T2264 030:960 JLINK_ReadReg(FPS1)  returns 0x00000000 (0000ms, 0767ms total)
T2264 030:960 JLINK_ReadReg(FPS2)  returns 0x00000000 (0000ms, 0767ms total)
T2264 030:960 JLINK_ReadReg(FPS3)  returns 0x00000000 (0000ms, 0767ms total)
T2264 030:960 JLINK_ReadReg(FPS4)  returns 0x00000000 (0000ms, 0767ms total)
T2264 030:960 JLINK_ReadReg(FPS5)  returns 0x00000000 (0000ms, 0767ms total)
T2264 030:960 JLINK_ReadReg(FPS6)  returns 0x00000000 (0000ms, 0767ms total)
T2264 030:960 JLINK_ReadReg(FPS7)  returns 0x00000000 (0000ms, 0767ms total)
T2264 030:960 JLINK_ReadReg(FPS8)  returns 0x00000000 (0000ms, 0767ms total)
T2264 030:960 JLINK_ReadReg(FPS9)  returns 0x00000000 (0000ms, 0767ms total)
T2264 030:960 JLINK_ReadReg(FPS10)  returns 0x00000000 (0000ms, 0767ms total)
T2264 030:960 JLINK_ReadReg(FPS11)  returns 0x00000000 (0000ms, 0767ms total)
T2264 030:960 JLINK_ReadReg(FPS12)  returns 0x00000000 (0001ms, 0768ms total)
T2264 030:961 JLINK_ReadReg(FPS13)  returns 0x00000000 (0000ms, 0768ms total)
T2264 030:961 JLINK_ReadReg(FPS14)  returns 0x00000000 (0000ms, 0768ms total)
T2264 030:961 JLINK_ReadReg(FPS15)  returns 0x00000000 (0000ms, 0768ms total)
T2264 030:961 JLINK_ReadReg(FPS16)  returns 0x00000000 (0000ms, 0768ms total)
T2264 030:961 JLINK_ReadReg(FPS17)  returns 0x00000000 (0000ms, 0768ms total)
T2264 030:961 JLINK_ReadReg(FPS18)  returns 0x00000000 (0000ms, 0768ms total)
T2264 030:961 JLINK_ReadReg(FPS19)  returns 0x00000000 (0000ms, 0768ms total)
T2264 030:961 JLINK_ReadReg(FPS20)  returns 0x00000000 (0000ms, 0768ms total)
T2264 030:961 JLINK_ReadReg(FPS21)  returns 0x00000000 (0000ms, 0768ms total)
T2264 030:961 JLINK_ReadReg(FPS22)  returns 0x00000000 (0000ms, 0768ms total)
T2264 030:961 JLINK_ReadReg(FPS23)  returns 0x00000000 (0000ms, 0768ms total)
T2264 030:961 JLINK_ReadReg(FPS24)  returns 0x00000000 (0000ms, 0768ms total)
T2264 030:961 JLINK_ReadReg(FPS25)  returns 0x00000000 (0000ms, 0768ms total)
T2264 030:961 JLINK_ReadReg(FPS26)  returns 0x00000000 (0000ms, 0768ms total)
T2264 030:961 JLINK_ReadReg(FPS27)  returns 0x00000000 (0000ms, 0768ms total)
T2264 030:961 JLINK_ReadReg(FPS28)  returns 0x00000000 (0001ms, 0769ms total)
T2264 030:962 JLINK_ReadReg(FPS29)  returns 0x00000000 (0000ms, 0769ms total)
T2264 030:962 JLINK_ReadReg(FPS30)  returns 0x00000000 (0000ms, 0769ms total)
T2264 030:962 JLINK_ReadReg(FPS31)  returns 0x00000000 (0000ms, 0769ms total)
T1EA4 030:962 JLINK_ReadMem (0x00000000, 0x0002 Bytes, ...) -- CPU_ReadMem(2 bytes @ 0x00000000) - Data: 28 04  returns 0x00 (0001ms, 0770ms total)
T1EA4 030:963 JLINK_ReadMem (0x2000000C, 0x0004 Bytes, ...) -- CPU_ReadMem(4 bytes @ 0x2000000C) - Data: 00 00 00 00  returns 0x00 (0000ms, 0770ms total)
T1EA4 030:963 JLINK_ReadMem (0x20000000, 0x0005 Bytes, ...) -- CPU_ReadMem(5 bytes @ 0x20000000) - Data: AA 00 00 00 00  returns 0x00 (0001ms, 0771ms total)
T1EA4 030:966 JLINK_ReadMem (0x08000DB4, 0x003C Bytes, ...) -- CPU_ReadMem(128 bytes @ 0x08000D80) -- Updating DA cache (128 bytes @ 0x08000D80) -- Read from DA cache (60 bytes @ 0x08000DB4) - Data: FF F7 16 FA FF F7 B0 FA 4F F4 16 50 FF F7 5A FF ...  returns 0x00 (0002ms, 0773ms total)
T2264 031:311 JLINK_SetBPEx(Addr = 0x08000DBC, Type = 0xFFFFFFF2)  returns 0x0000000A (0000ms, 0773ms total)
T2264 031:311 JLINK_SetBPEx(Addr = 0x080008D0, Type = 0xFFFFFFF2)  returns 0x0000000B (0000ms, 0773ms total)
T2264 031:311 JLINK_Go() -- CPU_WriteMem(4 bytes @ 0xE0002000) -- CPU_WriteMem(4 bytes @ 0xE0002000) -- CPU_ReadMem(4 bytes @ 0xE0001000) -- CPU_WriteMem(4 bytes @ 0xE0002008) (0005ms, 0778ms total)
T2264 031:416 JLINK_IsHalted()  returns TRUE (0004ms, 0782ms total)
T2264 031:420 JLINK_Halt()  returns 0x00 (0000ms, 0778ms total)
T2264 031:420 JLINK_IsHalted()  returns TRUE (0000ms, 0778ms total)
T2264 031:420 JLINK_IsHalted()  returns TRUE (0000ms, 0778ms total)
T2264 031:420 JLINK_IsHalted()  returns TRUE (0000ms, 0778ms total)
T2264 031:420 JLINK_ReadReg(R15 (PC))  returns 0x08000DBC (0000ms, 0778ms total)
T2264 031:420 JLINK_ReadReg(XPSR)  returns 0x41000000 (0000ms, 0778ms total)
T2264 031:420 JLINK_ClrBPEx(BPHandle = 0x0000000A)  returns 0x00 (0000ms, 0778ms total)
T2264 031:420 JLINK_ClrBPEx(BPHandle = 0x0000000B)  returns 0x00 (0000ms, 0778ms total)
T2264 031:420 JLINK_ReadMemU32(0xE000ED30, 0x0001 Items, ...) -- CPU_ReadMem(4 bytes @ 0xE000ED30) - Data: 03 00 00 00  returns 0x01 (0001ms, 0779ms total)
T2264 031:421 JLINK_ReadMemU32(0xE0001028, 0x0001 Items, ...) -- CPU_ReadMem(4 bytes @ 0xE0001028) - Data: 00 00 00 00  returns 0x01 (0001ms, 0780ms total)
T2264 031:422 JLINK_ReadMemU32(0xE0001038, 0x0001 Items, ...) -- CPU_ReadMem(4 bytes @ 0xE0001038) - Data: 00 02 00 00  returns 0x01 (0000ms, 0780ms total)
T2264 031:422 JLINK_ReadMemU32(0xE0001048, 0x0001 Items, ...) -- CPU_ReadMem(4 bytes @ 0xE0001048) - Data: 00 00 00 00  returns 0x01 (0001ms, 0781ms total)
T2264 031:423 JLINK_ReadMemU32(0xE0001058, 0x0001 Items, ...) -- CPU_ReadMem(4 bytes @ 0xE0001058) - Data: 00 00 00 00  returns 0x01 (0001ms, 0782ms total)
T2264 031:424 JLINK_ReadReg(R0)  returns 0x20000410 (0000ms, 0782ms total)
T2264 031:424 JLINK_ReadReg(R1)  returns 0x00000060 (0000ms, 0782ms total)
T2264 031:424 JLINK_ReadReg(R2)  returns 0x00000003 (0000ms, 0782ms total)
T2264 031:424 JLINK_ReadReg(R3)  returns 0x00000002 (0000ms, 0782ms total)
T2264 031:424 JLINK_ReadReg(R4)  returns 0x08000E50 (0000ms, 0782ms total)
T2264 031:424 JLINK_ReadReg(R5)  returns 0x08000E50 (0000ms, 0782ms total)
T2264 031:424 JLINK_ReadReg(R6)  returns 0x00000000 (0000ms, 0782ms total)
T2264 031:424 JLINK_ReadReg(R7)  returns 0x00000000 (0000ms, 0782ms total)
T2264 031:424 JLINK_ReadReg(R8)  returns 0x00000000 (0000ms, 0782ms total)
T2264 031:424 JLINK_ReadReg(R9)  returns 0x00000000 (0000ms, 0782ms total)
T2264 031:424 JLINK_ReadReg(R10)  returns 0x00000000 (0000ms, 0782ms total)
T2264 031:424 JLINK_ReadReg(R11)  returns 0x00000000 (0000ms, 0782ms total)
T2264 031:424 JLINK_ReadReg(R12)  returns 0x00000000 (0000ms, 0782ms total)
